
T06BC 000:078 SEGGER J-Link V4.60a Log File (0000ms, 0078ms total)
T06BC 000:078 DLL Compiled: Jan 16 2013 17:15:30 (0000ms, 0078ms total)
T06BC 000:078 Logging started @ 2016-02-25 17:08 (0000ms, 0078ms total)
T06BC 000:078 JLINK_SetWarnOutHandler(...) (0000ms, 0078ms total)
T06BC 000:078 JLINK_OpenEx(...)
Firmware: J-Link ARM-OB STM32 compiled Aug 22 2012 19:52:04
Hardware: V7.00
S/N: 20090928
Feature(s): RDI,FlashDL,FlashBP,JFlash,GDBFull  returns O.K. (0059ms, 0137ms total)
T06BC 000:137 JLINK_SetErrorOutHandler(...) (0000ms, 0137ms total)
T06BC 000:137 JLINK_ExecCommand("ProjectFile = "C:\Users\apple\Desktop\Ò°»ðM3-ÒÔÌ«Íø-LwIP1.3.2\USER\JLinkSettings.ini"", ...)  returns 0x00 (0000ms, 0137ms total)
T06BC 000:139 JLINK_ExecCommand("Device = STM32F103VE", ...)
                JLINK_ExecCommand("map ram 0x20000000 - 0x2000FFFF", ...)  returns 0x00 (0000ms, 0000ms total)
                JLINK_AddMirrorAreaEx(Addr = 0x00000000, Size = 0x00000000) (0000ms, 0000ms total)
              Device "STM32F103VE" selected (512 KB flash, 64 KB RAM).  returns 0x00 (0006ms, 0143ms total)
T06BC 000:145 JLINK_ExecCommand("DisableConnectionTimeout", ...)  returns 0x00 (0000ms, 0143ms total)
T06BC 000:145 JLINK_GetHardwareVersion()  returns 0x11170 (0000ms, 0143ms total)
T06BC 000:145 JLINK_GetDLLVersion()  returns 46001 (0000ms, 0143ms total)
T06BC 000:145 JLINK_GetFirmwareString(...) (0000ms, 0143ms total)
T06BC 000:148 JLINK_GetDLLVersion()  returns 46001 (0000ms, 0143ms total)
T06BC 000:148 JLINK_GetCompileDateTime() (0000ms, 0143ms total)
T06BC 000:149 JLINK_GetFirmwareString(...) (0000ms, 0143ms total)
T06BC 000:149 JLINK_GetHardwareVersion()  returns 0x11170 (0000ms, 0143ms total)
T06BC 000:154 JLINK_TIF_Select(JLINKARM_TIF_SWD)  returns 0x00 (0010ms, 0153ms total)
T06BC 000:164 JLINK_SetSpeed(50000) (0002ms, 0155ms total)
T06BC 000:166 JLINK_GetId() >0x108 TIF>Found SWD-DP with ID 0x1BA01477 >0x0D TIF> >0x28 TIF> >0x0D TIF> >0x28 TIF> >0x0D TIF> >0x21 TIF> >0x0D TIF> >0x28 TIF> >0x0D TIF> >0x28 TIF> >0x0D TIF> >0x28 TIF> >0x0D TIF> >0x21 TIF> >0x0D TIF> >0x21 TIF> >0x0D TIF> >0x28 TIF> >0x0D TIF> >0x21 TIF> >0x0D TIF> >0x21 TIF> >0x108 TIF>Found SWD-DP with ID 0x1BA01477 >0x0D TIF> >0x21 TIF> >0x0D TIF> >0x28 TIF> >0x0D TIF> >0x28 TIF> >0x0D TIF> >0x21 TIF> >0x0D TIF> >0x21 TIF> >0x0D TIF> >0x28 TIF> >0x0D TIF> >0x21 TIF>
 >0x0D TIF> >0x21 TIF> >0x0D TIF> >0x21 TIF> >0x0D TIF> >0x21 TIF> >0x0D TIF> >0x21 TIF> >0x0D TIF> >0x28 TIF> >0x0D TIF> >0x28 TIF> >0x0D TIF> >0x21 TIF> >0x0D TIF> >0x21 TIF> >0x0D TIF> >0x28 TIF> >0x0D TIF> >0x21 TIF> >0x0D TIF> >0x21 TIF> >0x0D TIF> >0x28 TIF> >0x0D TIF> >0x28 TIF> >0x0D TIF> >0x28 TIF> >0x0D TIF> >0x21 TIF> >0x0D TIF> >0x21 TIF> >0x0D TIF> >0x28 TIF> >0x0D TIF> >0x28 TIF> >0x0D TIF> >0x28 TIF> >0x0D TIF> >0x21 TIF> >0x0D TIF> >0x21 TIF> >0x0D TIF> >0x21 TIF>TPIU fitted.ETM fitted.
 >0x0D TIF> >0x28 TIF> >0x0D TIF> >0x21 TIF> >0x0D TIF> >0x21 TIF> >0x0D TIF> >0x28 TIF> >0x0D TIF> >0x21 TIF> >0x0D TIF> >0x21 TIF>FPUnit: 6 code (BP) slots and 2 literal slots >0x0D TIF> >0x28 TIF> >0x0D TIF> >0x21 TIF> >0x0D TIF> >0x21 TIF> >0x0D TIF> >0x28 TIF> >0x0D TIF> >0x21 TIF> >0x0D TIF> >0x21 TIF> >0x0D TIF> >0x28 TIF> >0x0D TIF> >0x21 TIF> >0x0D TIF> >0x21 TIF> >0x0D TIF> >0x28 TIF> >0x0D TIF> >0x21 TIF> >0x0D TIF> >0x21 TIF>Found Cortex-M3 r1p1, Little endian. >0x0D TIF> >0x21 TIF>
  returns 0x1BA01477 (0446ms, 0601ms total)
T06BC 000:612 JLINK_GetDLLVersion()  returns 46001 (0000ms, 0601ms total)
T06BC 000:612 JLINK_CORE_GetFound()  returns 0x30000FF (0000ms, 0601ms total)
T06BC 000:614 JLINK_ReadMem (0xE00FF000, 0x0020 Bytes, ...) -- CPU is running -- CPU_ReadMem(32 bytes @ 0xE00FF000) -- Data:  03 F0 F0 FF 03 20 F0 FF 03 30 F0 FF 03 10 F0 FF ...  returns 0x00 (0007ms, 0608ms total)
T06BC 000:621 JLINK_ReadMem (0xE000EFF0, 0x0010 Bytes, ...) -- CPU is running -- CPU_ReadMem(16 bytes @ 0xE000EFF0) -- Data:  0D 00 00 00 E0 00 00 00 05 00 00 00 B1 00 00 00  returns 0x00 (0003ms, 0611ms total)
T06BC 000:624 JLINK_ReadMem (0xE000EFD0, 0x0020 Bytes, ...) -- CPU is running -- CPU_ReadMem(32 bytes @ 0xE000EFD0) -- Data:  04 00 00 00 00 00 00 00 00 00 00 00 00 00 00 00 ...  returns 0x00 (0003ms, 0614ms total)
T06BC 000:627 JLINK_ReadMem (0xE0001FF0, 0x0010 Bytes, ...) -- CPU is running -- CPU_ReadMem(16 bytes @ 0xE0001FF0) -- Data:  0D 00 00 00 E0 00 00 00 05 00 00 00 B1 00 00 00  returns 0x00 (0002ms, 0616ms total)
T06BC 000:629 JLINK_ReadMem (0xE0001FD0, 0x0020 Bytes, ...) -- CPU is running -- CPU_ReadMem(32 bytes @ 0xE0001FD0) -- Data:  04 00 00 00 00 00 00 00 00 00 00 00 00 00 00 00 ...  returns 0x00 (0006ms, 0622ms total)
T06BC 000:635 JLINK_ReadMem (0xE0002FF0, 0x0010 Bytes, ...) -- CPU is running -- CPU_ReadMem(16 bytes @ 0xE0002FF0) -- Data:  0D 00 00 00 E0 00 00 00 05 00 00 00 B1 00 00 00  returns 0x00 (0003ms, 0625ms total)
T06BC 000:638 JLINK_ReadMem (0xE0002FD0, 0x0020 Bytes, ...) -- CPU is running -- CPU_ReadMem(32 bytes @ 0xE0002FD0) -- Data:  04 00 00 00 00 00 00 00 00 00 00 00 00 00 00 00 ...  returns 0x00 (0003ms, 0628ms total)
T06BC 000:641 JLINK_ReadMem (0xE0000FF0, 0x0010 Bytes, ...) -- CPU is running -- CPU_ReadMem(16 bytes @ 0xE0000FF0) -- Data:  0D 00 00 00 E0 00 00 00 05 00 00 00 B1 00 00 00  returns 0x00 (0003ms, 0631ms total)
T06BC 000:644 JLINK_ReadMem (0xE0000FD0, 0x0020 Bytes, ...) -- CPU is running -- CPU_ReadMem(32 bytes @ 0xE0000FD0) -- Data:  04 00 00 00 00 00 00 00 00 00 00 00 00 00 00 00 ...  returns 0x00 (0001ms, 0632ms total)
T06BC 000:645 JLINK_ReadMem (0xE0040FF0, 0x0010 Bytes, ...) -- CPU is running -- CPU_ReadMem(16 bytes @ 0xE0040FF0) -- Data:  0D 00 00 00 90 00 00 00 05 00 00 00 B1 00 00 00  returns 0x00 (0005ms, 0637ms total)
T06BC 000:650 JLINK_ReadMem (0xE0040FD0, 0x0020 Bytes, ...) -- CPU is running -- CPU_ReadMem(32 bytes @ 0xE0040FD0) -- Data:  04 00 00 00 00 00 00 00 00 00 00 00 00 00 00 00 ...  returns 0x00 (0003ms, 0640ms total)
T06BC 000:653 JLINK_ReadMem (0xE0041FF0, 0x0010 Bytes, ...) -- CPU is running -- CPU_ReadMem(16 bytes @ 0xE0041FF0) -- Data:  0D 00 00 00 90 00 00 00 05 00 00 00 B1 00 00 00  returns 0x00 (0003ms, 0643ms total)
T06BC 000:656 JLINK_ReadMem (0xE0041FD0, 0x0020 Bytes, ...) -- CPU is running -- CPU_ReadMem(32 bytes @ 0xE0041FD0) -- Data:  04 00 00 00 00 00 00 00 00 00 00 00 00 00 00 00 ...  returns 0x00 (0004ms, 0647ms total)
T06BC 000:660 JLINK_ReadMemU32(0xE000ED00, 0x0001 Items, ...) -- CPU is running -- CPU_ReadMem(4 bytes @ 0xE000ED00) -- Data:  31 C2 1F 41  returns 0x01 (0003ms, 0650ms total)
T06BC 000:663 JLINK_SetResetType(JLINKARM_RESET_TYPE_NORMAL)  returns JLINKARM_RESET_TYPE_NORMAL (0000ms, 0650ms total)
T06BC 000:663 JLINK_Reset() -- CPU is running -- CPU_WriteMem(4 bytes @ 0xE000EDF0) -- CPU is running -- CPU_WriteMem(4 bytes @ 0xE000EDFC) >0x35 TIF> -- CPU is running -- CPU_WriteMem(4 bytes @ 0xE000ED0C) -- CPU is running -- CPU_ReadMem(4 bytes @ 0xE000EDF0) -- CPU is running -- CPU_ReadMem(4 bytes @ 0xE000EDF0) -- CPU is running -- CPU_WriteMem(4 bytes @ 0xE000EDF0) -- CPU is running -- CPU_WriteMem(4 bytes @ 0xE000EDFC) -- CPU is running -- CPU_ReadMem(4 bytes @ 0xE000EDF0)
 -- CPU_WriteMem(4 bytes @ 0xE0002000) (0049ms, 0699ms total)
T06BC 000:712 JLINK_Halt()  returns 0x00 (0000ms, 0699ms total)
T06BC 000:712 JLINK_IsHalted()  returns TRUE (0001ms, 0700ms total)
T06BC 000:713 JLINK_ReadMemU32(0xE000EDF0, 0x0001 Items, ...) -- CPU_ReadMem(4 bytes @ 0xE000EDF0) -- Data:  03 00 03 00  returns 0x01 (0003ms, 0702ms total)
T06BC 000:716 JLINK_WriteU32(0xE000EDF0, 0xA05F0003) -- CPU_WriteMem(4 bytes @ 0xE000EDF0)  returns 0x00 (0004ms, 0706ms total)
T06BC 000:720 JLINK_WriteU32(0xE000EDFC, 0x01000000) -- CPU_WriteMem(4 bytes @ 0xE000EDFC)  returns 0x00 (0003ms, 0709ms total)
T06BC 000:731 JLINK_GetHWStatus(...)  returns 0x00 (0003ms, 0712ms total)
T06BC 000:739 JLINK_GetNumBPUnits(Type = 0xFFFFFF00)  returns 0x06 (0000ms, 0712ms total)
T06BC 000:739 JLINK_GetNumBPUnits(Type = 0xF0)  returns 0x2000 (0000ms, 0712ms total)
T06BC 000:739 JLINK_GetNumWPUnits()  returns 0x04 (0000ms, 0712ms total)
T06BC 000:743 JLINK_GetSpeed()  returns 0xFA0 (0000ms, 0712ms total)
T06BC 000:746 JLINK_ReadMemU32(0xE000E004, 0x0001 Items, ...) -- CPU_ReadMem(4 bytes @ 0xE000E004) -- Data:  01 00 00 00  returns 0x01 (0002ms, 0714ms total)
T06BC 000:748 JLINK_ReadMemU32(0xE000E004, 0x0001 Items, ...) -- CPU_ReadMem(4 bytes @ 0xE000E004) -- Data:  01 00 00 00  returns 0x01 (0005ms, 0719ms total)
T06BC 000:753 JLINK_WriteMem(0xE0001000, 0x001C Bytes, ...) -- Data:  01 00 00 00 00 00 00 00 00 00 00 00 00 00 00 00 ... -- CPU_WriteMem(28 bytes @ 0xE0001000)  returns 0x1C (0003ms, 0722ms total)
T06BC 000:756 JLINK_ReadMem (0xE0001000, 0x001C Bytes, ...) -- CPU_ReadMem(28 bytes @ 0xE0001000) -- Data:  01 00 00 40 00 00 00 00 00 00 00 00 00 00 00 00 ...  returns 0x00 (0002ms, 0724ms total)
T06BC 000:758 JLINK_Halt()  returns 0x00 (0000ms, 0724ms total)
T06BC 000:758 JLINK_IsHalted()  returns TRUE (0000ms, 0724ms total)
T06BC 000:760 JLINK_WriteMem(0x20000000, 0x0164 Bytes, ...) -- Data:  00 BE 0A E0 0D 78 2D 06 68 40 08 24 40 00 00 D3 ... -- CPU_WriteMem(356 bytes @ 0x20000000)  returns 0x164 (0005ms, 0729ms total)
T06BC 000:765 JLINK_WriteReg(R0, 0x08000000)  returns 0x00 (0000ms, 0729ms total)
T06BC 000:765 JLINK_WriteReg(R1, 0x00B71B00)  returns 0x00 (0000ms, 0729ms total)
T06BC 000:765 JLINK_WriteReg(R2, 0x00000001)  returns 0x00 (0000ms, 0729ms total)
T06BC 000:765 JLINK_WriteReg(R3, 0x00000000)  returns 0x00 (0000ms, 0729ms total)
T06BC 000:765 JLINK_WriteReg(R4, 0x00000000)  returns 0x00 (0000ms, 0729ms total)
T06BC 000:765 JLINK_WriteReg(R5, 0x00000000)  returns 0x00 (0000ms, 0729ms total)
T06BC 000:765 JLINK_WriteReg(R6, 0x00000000)  returns 0x00 (0000ms, 0729ms total)
T06BC 000:765 JLINK_WriteReg(R7, 0x00000000)  returns 0x00 (0000ms, 0729ms total)
T06BC 000:765 JLINK_WriteReg(R8, 0x00000000)  returns 0x00 (0000ms, 0729ms total)
T06BC 000:765 JLINK_WriteReg(R9, 0x20000160)  returns 0x00 (0000ms, 0729ms total)
T06BC 000:765 JLINK_WriteReg(R10, 0x00000000)  returns 0x00 (0000ms, 0729ms total)
T06BC 000:765 JLINK_WriteReg(R11, 0x00000000)  returns 0x00 (0000ms, 0729ms total)
T06BC 000:765 JLINK_WriteReg(R12, 0x00000000)  returns 0x00 (0000ms, 0729ms total)
T06BC 000:765 JLINK_WriteReg(R13, 0x20000800)  returns 0x00 (0000ms, 0729ms total)
T06BC 000:765 JLINK_WriteReg(R14, 0x20000001)  returns 0x00 (0000ms, 0729ms total)
T06BC 000:765 JLINK_WriteReg(R15, 0x20000038)  returns 0x00 (0000ms, 0729ms total)
T06BC 000:765 JLINK_WriteReg(XPSR, 0x01000000)  returns 0x00 (0000ms, 0729ms total)
T06BC 000:765 JLINK_WriteReg(MSP, 0x20000800)  returns 0x00 (0000ms, 0729ms total)
T06BC 000:765 JLINK_WriteReg(PSP, 0x20000800)  returns 0x00 (0000ms, 0729ms total)
T06BC 000:765 JLINK_WriteReg(CFBP, 0x00000000)  returns 0x00 (0000ms, 0729ms total)
T06BC 000:765 JLINK_SetBPEx(Addr = 0x20000000, Type = 0xFFFFFFF2) -- CPU_ReadMem(2 bytes @ 0x20000000)  returns 0x00000001 (0005ms, 0734ms total)
T06BC 000:770 JLINK_Go() -- CPU_WriteMem(2 bytes @ 0x20000000) -- CPU_WriteMem(4 bytes @ 0xE0002008) -- CPU_WriteMem(4 bytes @ 0xE000200C) -- CPU_WriteMem(4 bytes @ 0xE0002010) -- CPU_WriteMem(4 bytes @ 0xE0002014) -- CPU_WriteMem(4 bytes @ 0xE0002018) -- CPU_WriteMem(4 bytes @ 0xE000201C) (0032ms, 0766ms total)
T06BC 000:802 JLINK_IsHalted() -- CPU_ReadMem(2 bytes @ 0x20000000)  returns TRUE (0011ms, 0777ms total)
T06BC 000:813 JLINK_ReadReg(R15)  returns 0x20000000 (0000ms, 0766ms total)
T06BC 000:813 JLINK_ClrBPEx(BPHandle = 0x00000001)  returns 0x00 (0000ms, 0766ms total)
T06BC 000:813 JLINK_ReadReg(R0)  returns 0x00000000 (0001ms, 0767ms total)
T06BC 000:814 JLINK_WriteReg(R0, 0x08000000)  returns 0x00 (0000ms, 0767ms total)
T06BC 000:814 JLINK_WriteReg(R1, 0x00B71B00)  returns 0x00 (0000ms, 0767ms total)
T06BC 000:814 JLINK_WriteReg(R2, 0x00000001)  returns 0x00 (0000ms, 0767ms total)
T06BC 000:814 JLINK_WriteReg(R3, 0x00000000)  returns 0x00 (0000ms, 0767ms total)
T06BC 000:814 JLINK_WriteReg(R4, 0x00000000)  returns 0x00 (0000ms, 0767ms total)
T06BC 000:814 JLINK_WriteReg(R5, 0x00000000)  returns 0x00 (0000ms, 0767ms total)
T06BC 000:814 JLINK_WriteReg(R6, 0x00000000)  returns 0x00 (0000ms, 0767ms total)
T06BC 000:814 JLINK_WriteReg(R7, 0x00000000)  returns 0x00 (0000ms, 0767ms total)
T06BC 000:814 JLINK_WriteReg(R8, 0x00000000)  returns 0x00 (0000ms, 0767ms total)
T06BC 000:814 JLINK_WriteReg(R9, 0x20000160)  returns 0x00 (0000ms, 0767ms total)
T06BC 000:814 JLINK_WriteReg(R10, 0x00000000)  returns 0x00 (0000ms, 0767ms total)
T06BC 000:814 JLINK_WriteReg(R11, 0x00000000)  returns 0x00 (0000ms, 0767ms total)
T06BC 000:814 JLINK_WriteReg(R12, 0x00000000)  returns 0x00 (0000ms, 0767ms total)
T06BC 000:814 JLINK_WriteReg(R13, 0x20000800)  returns 0x00 (0000ms, 0767ms total)
T06BC 000:814 JLINK_WriteReg(R14, 0x20000001)  returns 0x00 (0000ms, 0767ms total)
T06BC 000:814 JLINK_WriteReg(R15, 0x2000007C)  returns 0x00 (0000ms, 0767ms total)
T06BC 000:814 JLINK_WriteReg(XPSR, 0x01000000)  returns 0x00 (0000ms, 0767ms total)
T06BC 000:814 JLINK_WriteReg(MSP, 0x20000800)  returns 0x00 (0000ms, 0767ms total)
T06BC 000:814 JLINK_WriteReg(PSP, 0x20000800)  returns 0x00 (0000ms, 0767ms total)
T06BC 000:814 JLINK_WriteReg(CFBP, 0x00000000)  returns 0x00 (0000ms, 0767ms total)
T06BC 000:814 JLINK_SetBPEx(Addr = 0x20000000, Type = 0xFFFFFFF2)  returns 0x00000002 (0000ms, 0767ms total)
T06BC 000:814 JLINK_Go() (0008ms, 0775ms total)
T06BC 000:822 JLINK_IsHalted()  returns FALSE (0003ms, 0778ms total)
T06BC 000:849 JLINK_IsHalted() -- CPU_ReadMem(2 bytes @ 0x20000000)  returns TRUE (0011ms, 0786ms total)
T06BC 000:860 JLINK_ReadReg(R15)  returns 0x20000000 (0000ms, 0775ms total)
T06BC 000:860 JLINK_ClrBPEx(BPHandle = 0x00000002)  returns 0x00 (0000ms, 0775ms total)
T06BC 000:860 JLINK_ReadReg(R0)  returns 0x00000000 (0000ms, 0775ms total)
T06BC 000:911 JLINK_WriteReg(R0, 0x00000001)  returns 0x00 (0000ms, 0775ms total)
T06BC 000:911 JLINK_WriteReg(R1, 0x00B71B00)  returns 0x00 (0000ms, 0775ms total)
T06BC 000:911 JLINK_WriteReg(R2, 0x00000001)  returns 0x00 (0000ms, 0775ms total)
T06BC 000:911 JLINK_WriteReg(R3, 0x00000000)  returns 0x00 (0000ms, 0775ms total)
T06BC 000:911 JLINK_WriteReg(R4, 0x00000000)  returns 0x00 (0000ms, 0775ms total)
T06BC 000:911 JLINK_WriteReg(R5, 0x00000000)  returns 0x00 (0000ms, 0775ms total)
T06BC 000:911 JLINK_WriteReg(R6, 0x00000000)  returns 0x00 (0000ms, 0775ms total)
T06BC 000:911 JLINK_WriteReg(R7, 0x00000000)  returns 0x00 (0000ms, 0775ms total)
T06BC 000:911 JLINK_WriteReg(R8, 0x00000000)  returns 0x00 (0000ms, 0775ms total)
T06BC 000:911 JLINK_WriteReg(R9, 0x20000160)  returns 0x00 (0000ms, 0775ms total)
T06BC 000:911 JLINK_WriteReg(R10, 0x00000000)  returns 0x00 (0000ms, 0775ms total)
T06BC 000:911 JLINK_WriteReg(R11, 0x00000000)  returns 0x00 (0000ms, 0775ms total)
T06BC 000:911 JLINK_WriteReg(R12, 0x00000000)  returns 0x00 (0000ms, 0775ms total)
T06BC 000:911 JLINK_WriteReg(R13, 0x20000800)  returns 0x00 (0000ms, 0775ms total)
T06BC 000:911 JLINK_WriteReg(R14, 0x20000001)  returns 0x00 (0000ms, 0775ms total)
T06BC 000:911 JLINK_WriteReg(R15, 0x2000006A)  returns 0x00 (0000ms, 0775ms total)
T06BC 000:911 JLINK_WriteReg(XPSR, 0x01000000)  returns 0x00 (0000ms, 0775ms total)
T06BC 000:911 JLINK_WriteReg(MSP, 0x20000800)  returns 0x00 (0000ms, 0775ms total)
T06BC 000:911 JLINK_WriteReg(PSP, 0x20000800)  returns 0x00 (0000ms, 0775ms total)
T06BC 000:911 JLINK_WriteReg(CFBP, 0x00000000)  returns 0x00 (0001ms, 0776ms total)
T06BC 000:912 JLINK_SetBPEx(Addr = 0x20000000, Type = 0xFFFFFFF2)  returns 0x00000003 (0000ms, 0776ms total)
T06BC 000:912 JLINK_Go() (0006ms, 0782ms total)
T06BC 000:918 JLINK_IsHalted() -- CPU_ReadMem(2 bytes @ 0x20000000)  returns TRUE (0011ms, 0793ms total)
T06BC 000:929 JLINK_ReadReg(R15)  returns 0x20000000 (0000ms, 0782ms total)
T06BC 000:929 JLINK_ClrBPEx(BPHandle = 0x00000003)  returns 0x00 (0000ms, 0782ms total)
T06BC 000:929 JLINK_ReadReg(R0)  returns 0x00000000 (0000ms, 0782ms total)
T06BC 000:935 JLINK_WriteMem(0x20000000, 0x0164 Bytes, ...) -- Data:  00 BE 0A E0 0D 78 2D 06 68 40 08 24 40 00 00 D3 ... -- CPU_WriteMem(356 bytes @ 0x20000000)  returns 0x164 (0006ms, 0788ms total)
T06BC 000:941 JLINK_WriteReg(R0, 0x08000000)  returns 0x00 (0000ms, 0788ms total)
T06BC 000:941 JLINK_WriteReg(R1, 0x00B71B00)  returns 0x00 (0000ms, 0788ms total)
T06BC 000:941 JLINK_WriteReg(R2, 0x00000002)  returns 0x00 (0000ms, 0788ms total)
T06BC 000:941 JLINK_WriteReg(R3, 0x00000000)  returns 0x00 (0000ms, 0788ms total)
T06BC 000:941 JLINK_WriteReg(R4, 0x00000000)  returns 0x00 (0000ms, 0788ms total)
T06BC 000:941 JLINK_WriteReg(R5, 0x00000000)  returns 0x00 (0000ms, 0788ms total)
T06BC 000:941 JLINK_WriteReg(R6, 0x00000000)  returns 0x00 (0000ms, 0788ms total)
T06BC 000:941 JLINK_WriteReg(R7, 0x00000000)  returns 0x00 (0000ms, 0788ms total)
T06BC 000:941 JLINK_WriteReg(R8, 0x00000000)  returns 0x00 (0000ms, 0788ms total)
T06BC 000:941 JLINK_WriteReg(R9, 0x20000160)  returns 0x00 (0000ms, 0788ms total)
T06BC 000:941 JLINK_WriteReg(R10, 0x00000000)  returns 0x00 (0000ms, 0788ms total)
T06BC 000:941 JLINK_WriteReg(R11, 0x00000000)  returns 0x00 (0000ms, 0788ms total)
T06BC 000:941 JLINK_WriteReg(R12, 0x00000000)  returns 0x00 (0000ms, 0788ms total)
T06BC 000:941 JLINK_WriteReg(R13, 0x20000800)  returns 0x00 (0000ms, 0788ms total)
T06BC 000:941 JLINK_WriteReg(R14, 0x20000001)  returns 0x00 (0000ms, 0788ms total)
T06BC 000:941 JLINK_WriteReg(R15, 0x20000038)  returns 0x00 (0000ms, 0788ms total)
T06BC 000:941 JLINK_WriteReg(XPSR, 0x01000000)  returns 0x00 (0000ms, 0788ms total)
T06BC 000:941 JLINK_WriteReg(MSP, 0x20000800)  returns 0x00 (0000ms, 0788ms total)
T06BC 000:941 JLINK_WriteReg(PSP, 0x20000800)  returns 0x00 (0000ms, 0788ms total)
T06BC 000:941 JLINK_WriteReg(CFBP, 0x00000000)  returns 0x00 (0000ms, 0788ms total)
T06BC 000:941 JLINK_SetBPEx(Addr = 0x20000000, Type = 0xFFFFFFF2) -- CPU_ReadMem(2 bytes @ 0x20000000)  returns 0x00000004 (0003ms, 0791ms total)
T06BC 000:944 JLINK_Go() -- CPU_WriteMem(2 bytes @ 0x20000000) (0010ms, 0801ms total)
T06BC 000:954 JLINK_IsHalted() -- CPU_ReadMem(2 bytes @ 0x20000000)  returns TRUE (0010ms, 0811ms total)
T06BC 000:964 JLINK_ReadReg(R15)  returns 0x20000000 (0000ms, 0801ms total)
T06BC 000:964 JLINK_ClrBPEx(BPHandle = 0x00000004)  returns 0x00 (0000ms, 0801ms total)
T06BC 000:964 JLINK_ReadReg(R0)  returns 0x00000000 (0000ms, 0801ms total)
T06BC 000:964 JLINK_WriteMem(0x20000164, 0x0400 Bytes, ...) -- Data:  40 87 00 20 45 01 00 08 D9 01 00 08 DB 01 00 08 ... -- CPU_WriteMem(1024 bytes @ 0x20000164)  returns 0x400 (0014ms, 0815ms total)
T06BC 000:978 JLINK_WriteReg(R0, 0x08000000)  returns 0x00 (0000ms, 0815ms total)
T06BC 000:978 JLINK_WriteReg(R1, 0x00000400)  returns 0x00 (0000ms, 0815ms total)
T06BC 000:978 JLINK_WriteReg(R2, 0x20000164)  returns 0x00 (0000ms, 0815ms total)
T06BC 000:978 JLINK_WriteReg(R3, 0x00000000)  returns 0x00 (0000ms, 0815ms total)
T06BC 000:978 JLINK_WriteReg(R4, 0x00000000)  returns 0x00 (0000ms, 0815ms total)
T06BC 000:978 JLINK_WriteReg(R5, 0x00000000)  returns 0x00 (0000ms, 0815ms total)
T06BC 000:978 JLINK_WriteReg(R6, 0x00000000)  returns 0x00 (0000ms, 0815ms total)
T06BC 000:978 JLINK_WriteReg(R7, 0x00000000)  returns 0x00 (0000ms, 0815ms total)
T06BC 000:978 JLINK_WriteReg(R8, 0x00000000)  returns 0x00 (0000ms, 0815ms total)
T06BC 000:978 JLINK_WriteReg(R9, 0x20000160)  returns 0x00 (0001ms, 0816ms total)
T06BC 000:979 JLINK_WriteReg(R10, 0x00000000)  returns 0x00 (0000ms, 0816ms total)
T06BC 000:979 JLINK_WriteReg(R11, 0x00000000)  returns 0x00 (0000ms, 0816ms total)
T06BC 000:979 JLINK_WriteReg(R12, 0x00000000)  returns 0x00 (0000ms, 0816ms total)
T06BC 000:979 JLINK_WriteReg(R13, 0x20000800)  returns 0x00 (0000ms, 0816ms total)
T06BC 000:979 JLINK_WriteReg(R14, 0x20000001)  returns 0x00 (0000ms, 0816ms total)
T06BC 000:979 JLINK_WriteReg(R15, 0x200000F4)  returns 0x00 (0000ms, 0816ms total)
T06BC 000:979 JLINK_WriteReg(XPSR, 0x01000000)  returns 0x00 (0000ms, 0816ms total)
T06BC 000:979 JLINK_WriteReg(MSP, 0x20000800)  returns 0x00 (0000ms, 0816ms total)
T06BC 000:979 JLINK_WriteReg(PSP, 0x20000800)  returns 0x00 (0000ms, 0816ms total)
T06BC 000:979 JLINK_WriteReg(CFBP, 0x00000000)  returns 0x00 (0000ms, 0816ms total)
T06BC 000:979 JLINK_SetBPEx(Addr = 0x20000000, Type = 0xFFFFFFF2)  returns 0x00000005 (0000ms, 0816ms total)
T06BC 000:979 JLINK_Go() (0005ms, 0821ms total)
T06BC 000:984 JLINK_IsHalted()  returns FALSE (0004ms, 0825ms total)
T06BC 000:998 JLINK_IsHalted()  returns FALSE (0002ms, 0823ms total)
T06BC 001:001 JLINK_IsHalted()  returns FALSE (0006ms, 0827ms total)
T06BC 001:010 JLINK_IsHalted()  returns FALSE (0004ms, 0825ms total)
T06BC 001:015 JLINK_IsHalted() -- CPU_ReadMem(2 bytes @ 0x20000000)  returns TRUE (0012ms, 0833ms total)
T06BC 001:027 JLINK_ReadReg(R15)  returns 0x20000000 (0000ms, 0821ms total)
T06BC 001:027 JLINK_ClrBPEx(BPHandle = 0x00000005)  returns 0x00 (0000ms, 0821ms total)
T06BC 001:027 JLINK_ReadReg(R0)  returns 0x00000000 (0000ms, 0821ms total)
T06BC 001:028 JLINK_WriteMem(0x20000164, 0x0400 Bytes, ...) -- Data:  30 46 01 F0 73 FA 00 28 F9 D0 0B 98 00 78 00 28 ... -- CPU_WriteMem(1024 bytes @ 0x20000164)  returns 0x400 (0013ms, 0834ms total)
T06BC 001:041 JLINK_WriteReg(R0, 0x08000400)  returns 0x00 (0000ms, 0834ms total)
T06BC 001:041 JLINK_WriteReg(R1, 0x00000400)  returns 0x00 (0000ms, 0834ms total)
T06BC 001:041 JLINK_WriteReg(R2, 0x20000164)  returns 0x00 (0000ms, 0834ms total)
T06BC 001:041 JLINK_WriteReg(R3, 0x00000000)  returns 0x00 (0000ms, 0834ms total)
T06BC 001:041 JLINK_WriteReg(R4, 0x00000000)  returns 0x00 (0000ms, 0834ms total)
T06BC 001:041 JLINK_WriteReg(R5, 0x00000000)  returns 0x00 (0000ms, 0834ms total)
T06BC 001:041 JLINK_WriteReg(R6, 0x00000000)  returns 0x00 (0000ms, 0834ms total)
T06BC 001:041 JLINK_WriteReg(R7, 0x00000000)  returns 0x00 (0000ms, 0834ms total)
T06BC 001:041 JLINK_WriteReg(R8, 0x00000000)  returns 0x00 (0000ms, 0834ms total)
T06BC 001:041 JLINK_WriteReg(R9, 0x20000160)  returns 0x00 (0000ms, 0834ms total)
T06BC 001:041 JLINK_WriteReg(R10, 0x00000000)  returns 0x00 (0000ms, 0834ms total)
T06BC 001:041 JLINK_WriteReg(R11, 0x00000000)  returns 0x00 (0000ms, 0834ms total)
T06BC 001:041 JLINK_WriteReg(R12, 0x00000000)  returns 0x00 (0000ms, 0834ms total)
T06BC 001:041 JLINK_WriteReg(R13, 0x20000800)  returns 0x00 (0000ms, 0834ms total)
T06BC 001:041 JLINK_WriteReg(R14, 0x20000001)  returns 0x00 (0000ms, 0834ms total)
T06BC 001:041 JLINK_WriteReg(R15, 0x200000F4)  returns 0x00 (0000ms, 0834ms total)
T06BC 001:041 JLINK_WriteReg(XPSR, 0x01000000)  returns 0x00 (0000ms, 0834ms total)
T06BC 001:041 JLINK_WriteReg(MSP, 0x20000800)  returns 0x00 (0000ms, 0834ms total)
T06BC 001:041 JLINK_WriteReg(PSP, 0x20000800)  returns 0x00 (0000ms, 0834ms total)
T06BC 001:041 JLINK_WriteReg(CFBP, 0x00000000)  returns 0x00 (0000ms, 0834ms total)
T06BC 001:041 JLINK_SetBPEx(Addr = 0x20000000, Type = 0xFFFFFFF2)  returns 0x00000006 (0000ms, 0834ms total)
T06BC 001:041 JLINK_Go() (0008ms, 0842ms total)
T06BC 001:049 JLINK_IsHalted()  returns FALSE (0002ms, 0844ms total)
T06BC 001:053 JLINK_IsHalted()  returns FALSE (0002ms, 0844ms total)
T06BC 001:056 JLINK_IsHalted()  returns FALSE (0003ms, 0845ms total)
T06BC 001:060 JLINK_IsHalted()  returns FALSE (0003ms, 0845ms total)
T06BC 001:064 JLINK_IsHalted()  returns FALSE (0003ms, 0845ms total)
T06BC 001:068 JLINK_IsHalted()  returns FALSE (0003ms, 0845ms total)
T06BC 001:072 JLINK_IsHalted()  returns FALSE (0002ms, 0844ms total)
T06BC 001:075 JLINK_IsHalted()  returns FALSE (0002ms, 0844ms total)
T06BC 001:078 JLINK_IsHalted() -- CPU_ReadMem(2 bytes @ 0x20000000)  returns TRUE (0010ms, 0852ms total)
T06BC 001:088 JLINK_ReadReg(R15)  returns 0x20000000 (0000ms, 0842ms total)
T06BC 001:088 JLINK_ClrBPEx(BPHandle = 0x00000006)  returns 0x00 (0000ms, 0842ms total)
T06BC 001:088 JLINK_ReadReg(R0)  returns 0x00000000 (0000ms, 0842ms total)
T06BC 001:089 JLINK_WriteMem(0x20000164, 0x0400 Bytes, ...) -- Data:  07 21 07 20 FF F7 19 FF 00 22 11 46 7A 20 FF F7 ... -- CPU_WriteMem(1024 bytes @ 0x20000164)  returns 0x400 (0013ms, 0855ms total)
T06BC 001:102 JLINK_WriteReg(R0, 0x08000800)  returns 0x00 (0000ms, 0855ms total)
T06BC 001:102 JLINK_WriteReg(R1, 0x00000400)  returns 0x00 (0000ms, 0855ms total)
T06BC 001:102 JLINK_WriteReg(R2, 0x20000164)  returns 0x00 (0000ms, 0855ms total)
T06BC 001:102 JLINK_WriteReg(R3, 0x00000000)  returns 0x00 (0000ms, 0855ms total)
T06BC 001:102 JLINK_WriteReg(R4, 0x00000000)  returns 0x00 (0000ms, 0855ms total)
T06BC 001:102 JLINK_WriteReg(R5, 0x00000000)  returns 0x00 (0000ms, 0855ms total)
T06BC 001:102 JLINK_WriteReg(R6, 0x00000000)  returns 0x00 (0000ms, 0855ms total)
T06BC 001:102 JLINK_WriteReg(R7, 0x00000000)  returns 0x00 (0000ms, 0855ms total)
T06BC 001:102 JLINK_WriteReg(R8, 0x00000000)  returns 0x00 (0000ms, 0855ms total)
T06BC 001:102 JLINK_WriteReg(R9, 0x20000160)  returns 0x00 (0000ms, 0855ms total)
T06BC 001:102 JLINK_WriteReg(R10, 0x00000000)  returns 0x00 (0000ms, 0855ms total)
T06BC 001:102 JLINK_WriteReg(R11, 0x00000000)  returns 0x00 (0000ms, 0855ms total)
T06BC 001:102 JLINK_WriteReg(R12, 0x00000000)  returns 0x00 (0000ms, 0855ms total)
T06BC 001:102 JLINK_WriteReg(R13, 0x20000800)  returns 0x00 (0000ms, 0855ms total)
T06BC 001:102 JLINK_WriteReg(R14, 0x20000001)  returns 0x00 (0000ms, 0855ms total)
T06BC 001:102 JLINK_WriteReg(R15, 0x200000F4)  returns 0x00 (0000ms, 0855ms total)
T06BC 001:102 JLINK_WriteReg(XPSR, 0x01000000)  returns 0x00 (0000ms, 0855ms total)
T06BC 001:102 JLINK_WriteReg(MSP, 0x20000800)  returns 0x00 (0000ms, 0855ms total)
T06BC 001:102 JLINK_WriteReg(PSP, 0x20000800)  returns 0x00 (0000ms, 0855ms total)
T06BC 001:102 JLINK_WriteReg(CFBP, 0x00000000)  returns 0x00 (0000ms, 0855ms total)
T06BC 001:102 JLINK_SetBPEx(Addr = 0x20000000, Type = 0xFFFFFFF2)  returns 0x00000007 (0000ms, 0855ms total)
T06BC 001:102 JLINK_Go() (0007ms, 0862ms total)
T06BC 001:109 JLINK_IsHalted()  returns FALSE (0003ms, 0865ms total)
T06BC 001:117 JLINK_IsHalted()  returns FALSE (0003ms, 0865ms total)
T06BC 001:121 JLINK_IsHalted()  returns FALSE (0003ms, 0865ms total)
T06BC 001:125 JLINK_IsHalted()  returns FALSE (0002ms, 0864ms total)
T06BC 001:128 JLINK_IsHalted()  returns FALSE (0002ms, 0864ms total)
T06BC 001:131 JLINK_IsHalted()  returns FALSE (0003ms, 0865ms total)
T06BC 001:135 JLINK_IsHalted()  returns FALSE (0004ms, 0866ms total)
T06BC 001:140 JLINK_IsHalted() -- CPU_ReadMem(2 bytes @ 0x20000000)  returns TRUE (0012ms, 0874ms total)
T06BC 001:152 JLINK_ReadReg(R15)  returns 0x20000000 (0000ms, 0862ms total)
T06BC 001:152 JLINK_ClrBPEx(BPHandle = 0x00000007)  returns 0x00 (0000ms, 0862ms total)
T06BC 001:152 JLINK_ReadReg(R0)  returns 0x00000000 (0000ms, 0862ms total)
T06BC 001:152 JLINK_WriteMem(0x20000164, 0x0400 Bytes, ...) -- Data:  40 20 00 F0 F9 FA 16 E0 B3 48 84 42 08 D1 01 21 ... -- CPU_WriteMem(1024 bytes @ 0x20000164)  returns 0x400 (0013ms, 0875ms total)
T06BC 001:165 JLINK_WriteReg(R0, 0x08000C00)  returns 0x00 (0000ms, 0875ms total)
T06BC 001:165 JLINK_WriteReg(R1, 0x00000400)  returns 0x00 (0000ms, 0875ms total)
T06BC 001:165 JLINK_WriteReg(R2, 0x20000164)  returns 0x00 (0000ms, 0875ms total)
T06BC 001:165 JLINK_WriteReg(R3, 0x00000000)  returns 0x00 (0000ms, 0875ms total)
T06BC 001:165 JLINK_WriteReg(R4, 0x00000000)  returns 0x00 (0000ms, 0875ms total)
T06BC 001:165 JLINK_WriteReg(R5, 0x00000000)  returns 0x00 (0000ms, 0875ms total)
T06BC 001:165 JLINK_WriteReg(R6, 0x00000000)  returns 0x00 (0000ms, 0875ms total)
T06BC 001:165 JLINK_WriteReg(R7, 0x00000000)  returns 0x00 (0000ms, 0875ms total)
T06BC 001:165 JLINK_WriteReg(R8, 0x00000000)  returns 0x00 (0000ms, 0875ms total)
T06BC 001:165 JLINK_WriteReg(R9, 0x20000160)  returns 0x00 (0000ms, 0875ms total)
T06BC 001:165 JLINK_WriteReg(R10, 0x00000000)  returns 0x00 (0000ms, 0875ms total)
T06BC 001:165 JLINK_WriteReg(R11, 0x00000000)  returns 0x00 (0000ms, 0875ms total)
T06BC 001:165 JLINK_WriteReg(R12, 0x00000000)  returns 0x00 (0000ms, 0875ms total)
T06BC 001:165 JLINK_WriteReg(R13, 0x20000800)  returns 0x00 (0000ms, 0875ms total)
T06BC 001:165 JLINK_WriteReg(R14, 0x20000001)  returns 0x00 (0000ms, 0875ms total)
T06BC 001:165 JLINK_WriteReg(R15, 0x200000F4)  returns 0x00 (0000ms, 0875ms total)
T06BC 001:165 JLINK_WriteReg(XPSR, 0x01000000)  returns 0x00 (0000ms, 0875ms total)
T06BC 001:166 JLINK_WriteReg(MSP, 0x20000800)  returns 0x00 (0000ms, 0876ms total)
T06BC 001:166 JLINK_WriteReg(PSP, 0x20000800)  returns 0x00 (0000ms, 0876ms total)
T06BC 001:166 JLINK_WriteReg(CFBP, 0x00000000)  returns 0x00 (0000ms, 0876ms total)
T06BC 001:166 JLINK_SetBPEx(Addr = 0x20000000, Type = 0xFFFFFFF2)  returns 0x00000008 (0000ms, 0876ms total)
T06BC 001:166 JLINK_Go() (0005ms, 0881ms total)
T06BC 001:171 JLINK_IsHalted()  returns FALSE (0003ms, 0884ms total)
T06BC 001:177 JLINK_IsHalted()  returns FALSE (0004ms, 0885ms total)
T06BC 001:182 JLINK_IsHalted()  returns FALSE (0003ms, 0884ms total)
T06BC 001:186 JLINK_IsHalted()  returns FALSE (0002ms, 0883ms total)
T06BC 001:189 JLINK_IsHalted()  returns FALSE (0002ms, 0883ms total)
T06BC 001:192 JLINK_IsHalted()  returns FALSE (0003ms, 0884ms total)
T06BC 001:198 JLINK_IsHalted()  returns FALSE (0003ms, 0884ms total)
T06BC 001:202 JLINK_IsHalted() -- CPU_ReadMem(2 bytes @ 0x20000000)  returns TRUE (0011ms, 0892ms total)
T06BC 001:213 JLINK_ReadReg(R15)  returns 0x20000000 (0000ms, 0881ms total)
T06BC 001:213 JLINK_ClrBPEx(BPHandle = 0x00000008)  returns 0x00 (0000ms, 0881ms total)
T06BC 001:213 JLINK_ReadReg(R0)  returns 0x00000000 (0000ms, 0881ms total)
T06BC 001:213 JLINK_WriteMem(0x20000164, 0x0400 Bytes, ...) -- Data:  20 F4 7C 10 42 EA 01 03 18 43 97 4B 58 60 70 47 ... -- CPU_WriteMem(1024 bytes @ 0x20000164)  returns 0x400 (0013ms, 0894ms total)
T06BC 001:226 JLINK_WriteReg(R0, 0x08001000)  returns 0x00 (0000ms, 0894ms total)
T06BC 001:226 JLINK_WriteReg(R1, 0x00000400)  returns 0x00 (0000ms, 0894ms total)
T06BC 001:226 JLINK_WriteReg(R2, 0x20000164)  returns 0x00 (0000ms, 0894ms total)
T06BC 001:226 JLINK_WriteReg(R3, 0x00000000)  returns 0x00 (0000ms, 0894ms total)
T06BC 001:226 JLINK_WriteReg(R4, 0x00000000)  returns 0x00 (0000ms, 0894ms total)
T06BC 001:226 JLINK_WriteReg(R5, 0x00000000)  returns 0x00 (0000ms, 0894ms total)
T06BC 001:226 JLINK_WriteReg(R6, 0x00000000)  returns 0x00 (0000ms, 0894ms total)
T06BC 001:226 JLINK_WriteReg(R7, 0x00000000)  returns 0x00 (0000ms, 0894ms total)
T06BC 001:226 JLINK_WriteReg(R8, 0x00000000)  returns 0x00 (0000ms, 0894ms total)
T06BC 001:226 JLINK_WriteReg(R9, 0x20000160)  returns 0x00 (0000ms, 0894ms total)
T06BC 001:226 JLINK_WriteReg(R10, 0x00000000)  returns 0x00 (0000ms, 0894ms total)
T06BC 001:226 JLINK_WriteReg(R11, 0x00000000)  returns 0x00 (0000ms, 0894ms total)
T06BC 001:226 JLINK_WriteReg(R12, 0x00000000)  returns 0x00 (0000ms, 0894ms total)
T06BC 001:226 JLINK_WriteReg(R13, 0x20000800)  returns 0x00 (0000ms, 0894ms total)
T06BC 001:227 JLINK_WriteReg(R14, 0x20000001)  returns 0x00 (0000ms, 0895ms total)
T06BC 001:227 JLINK_WriteReg(R15, 0x200000F4)  returns 0x00 (0000ms, 0895ms total)
T06BC 001:227 JLINK_WriteReg(XPSR, 0x01000000)  returns 0x00 (0000ms, 0895ms total)
T06BC 001:227 JLINK_WriteReg(MSP, 0x20000800)  returns 0x00 (0000ms, 0895ms total)
T06BC 001:227 JLINK_WriteReg(PSP, 0x20000800)  returns 0x00 (0000ms, 0895ms total)
T06BC 001:227 JLINK_WriteReg(CFBP, 0x00000000)  returns 0x00 (0000ms, 0895ms total)
T06BC 001:227 JLINK_SetBPEx(Addr = 0x20000000, Type = 0xFFFFFFF2)  returns 0x00000009 (0000ms, 0895ms total)
T06BC 001:227 JLINK_Go() (0007ms, 0902ms total)
T06BC 001:234 JLINK_IsHalted()  returns FALSE (0003ms, 0905ms total)
T06BC 001:241 JLINK_IsHalted()  returns FALSE (0001ms, 0903ms total)
T06BC 001:243 JLINK_IsHalted()  returns FALSE (0003ms, 0905ms total)
T06BC 001:247 JLINK_IsHalted()  returns FALSE (0002ms, 0904ms total)
T06BC 001:250 JLINK_IsHalted()  returns FALSE (0002ms, 0904ms total)
T06BC 001:253 JLINK_IsHalted()  returns FALSE (0003ms, 0905ms total)
T06BC 001:257 JLINK_IsHalted()  returns FALSE (0002ms, 0904ms total)
T06BC 001:260 JLINK_IsHalted()  returns FALSE (0003ms, 0905ms total)
T06BC 001:264 JLINK_IsHalted() -- CPU_ReadMem(2 bytes @ 0x20000000)  returns TRUE (0011ms, 0913ms total)
T06BC 001:275 JLINK_ReadReg(R15)  returns 0x20000000 (0000ms, 0902ms total)
T06BC 001:275 JLINK_ClrBPEx(BPHandle = 0x00000009)  returns 0x00 (0000ms, 0902ms total)
T06BC 001:275 JLINK_ReadReg(R0)  returns 0x00000000 (0000ms, 0902ms total)
T06BC 001:276 JLINK_WriteMem(0x20000164, 0x0400 Bytes, ...) -- Data:  01 81 41 81 81 81 C1 81 07 21 01 82 70 47 00 21 ... -- CPU_WriteMem(1024 bytes @ 0x20000164)  returns 0x400 (0013ms, 0915ms total)
T06BC 001:289 JLINK_WriteReg(R0, 0x08001400)  returns 0x00 (0000ms, 0915ms total)
T06BC 001:289 JLINK_WriteReg(R1, 0x00000400)  returns 0x00 (0000ms, 0915ms total)
T06BC 001:289 JLINK_WriteReg(R2, 0x20000164)  returns 0x00 (0000ms, 0915ms total)
T06BC 001:289 JLINK_WriteReg(R3, 0x00000000)  returns 0x00 (0000ms, 0915ms total)
T06BC 001:289 JLINK_WriteReg(R4, 0x00000000)  returns 0x00 (0000ms, 0915ms total)
T06BC 001:289 JLINK_WriteReg(R5, 0x00000000)  returns 0x00 (0000ms, 0915ms total)
T06BC 001:289 JLINK_WriteReg(R6, 0x00000000)  returns 0x00 (0000ms, 0915ms total)
T06BC 001:289 JLINK_WriteReg(R7, 0x00000000)  returns 0x00 (0000ms, 0915ms total)
T06BC 001:289 JLINK_WriteReg(R8, 0x00000000)  returns 0x00 (0000ms, 0915ms total)
T06BC 001:289 JLINK_WriteReg(R9, 0x20000160)  returns 0x00 (0000ms, 0915ms total)
T06BC 001:289 JLINK_WriteReg(R10, 0x00000000)  returns 0x00 (0000ms, 0915ms total)
T06BC 001:289 JLINK_WriteReg(R11, 0x00000000)  returns 0x00 (0000ms, 0915ms total)
T06BC 001:289 JLINK_WriteReg(R12, 0x00000000)  returns 0x00 (0000ms, 0915ms total)
T06BC 001:289 JLINK_WriteReg(R13, 0x20000800)  returns 0x00 (0000ms, 0915ms total)
T06BC 001:289 JLINK_WriteReg(R14, 0x20000001)  returns 0x00 (0000ms, 0915ms total)
T06BC 001:289 JLINK_WriteReg(R15, 0x200000F4)  returns 0x00 (0000ms, 0915ms total)
T06BC 001:289 JLINK_WriteReg(XPSR, 0x01000000)  returns 0x00 (0000ms, 0915ms total)
T06BC 001:289 JLINK_WriteReg(MSP, 0x20000800)  returns 0x00 (0000ms, 0915ms total)
T06BC 001:289 JLINK_WriteReg(PSP, 0x20000800)  returns 0x00 (0000ms, 0915ms total)
T06BC 001:289 JLINK_WriteReg(CFBP, 0x00000000)  returns 0x00 (0000ms, 0915ms total)
T06BC 001:289 JLINK_SetBPEx(Addr = 0x20000000, Type = 0xFFFFFFF2)  returns 0x0000000A (0000ms, 0915ms total)
T06BC 001:289 JLINK_Go() (0007ms, 0922ms total)
T06BC 001:296 JLINK_IsHalted()  returns FALSE (0002ms, 0924ms total)
T06BC 001:303 JLINK_IsHalted()  returns FALSE (0005ms, 0927ms total)
T06BC 001:309 JLINK_IsHalted()  returns FALSE (0003ms, 0925ms total)
T06BC 001:313 JLINK_IsHalted()  returns FALSE (0002ms, 0924ms total)
T06BC 001:316 JLINK_IsHalted()  returns FALSE (0002ms, 0924ms total)
T06BC 001:320 JLINK_IsHalted()  returns FALSE (0003ms, 0925ms total)
T06BC 001:324 JLINK_IsHalted() -- CPU_ReadMem(2 bytes @ 0x20000000)  returns TRUE (0010ms, 0932ms total)
T06BC 001:334 JLINK_ReadReg(R15)  returns 0x20000000 (0000ms, 0922ms total)
T06BC 001:334 JLINK_ClrBPEx(BPHandle = 0x0000000A)  returns 0x00 (0000ms, 0922ms total)
T06BC 001:334 JLINK_ReadReg(R0)  returns 0x00000000 (0000ms, 0922ms total)
T06BC 001:334 JLINK_WriteMem(0x20000164, 0x0400 Bytes, ...) -- Data:  02 82 04 E0 02 8A 4B F6 FF 73 1A 40 02 82 70 47 ... -- CPU_WriteMem(1024 bytes @ 0x20000164)  returns 0x400 (0013ms, 0935ms total)
T06BC 001:347 JLINK_WriteReg(R0, 0x08001800)  returns 0x00 (0000ms, 0935ms total)
T06BC 001:347 JLINK_WriteReg(R1, 0x00000400)  returns 0x00 (0000ms, 0935ms total)
T06BC 001:347 JLINK_WriteReg(R2, 0x20000164)  returns 0x00 (0000ms, 0935ms total)
T06BC 001:347 JLINK_WriteReg(R3, 0x00000000)  returns 0x00 (0000ms, 0935ms total)
T06BC 001:347 JLINK_WriteReg(R4, 0x00000000)  returns 0x00 (0000ms, 0935ms total)
T06BC 001:347 JLINK_WriteReg(R5, 0x00000000)  returns 0x00 (0000ms, 0935ms total)
T06BC 001:347 JLINK_WriteReg(R6, 0x00000000)  returns 0x00 (0000ms, 0935ms total)
T06BC 001:347 JLINK_WriteReg(R7, 0x00000000)  returns 0x00 (0000ms, 0935ms total)
T06BC 001:347 JLINK_WriteReg(R8, 0x00000000)  returns 0x00 (0000ms, 0935ms total)
T06BC 001:347 JLINK_WriteReg(R9, 0x20000160)  returns 0x00 (0000ms, 0935ms total)
T06BC 001:347 JLINK_WriteReg(R10, 0x00000000)  returns 0x00 (0000ms, 0935ms total)
T06BC 001:347 JLINK_WriteReg(R11, 0x00000000)  returns 0x00 (0000ms, 0935ms total)
T06BC 001:347 JLINK_WriteReg(R12, 0x00000000)  returns 0x00 (0000ms, 0935ms total)
T06BC 001:347 JLINK_WriteReg(R13, 0x20000800)  returns 0x00 (0000ms, 0935ms total)
T06BC 001:347 JLINK_WriteReg(R14, 0x20000001)  returns 0x00 (0000ms, 0935ms total)
T06BC 001:347 JLINK_WriteReg(R15, 0x200000F4)  returns 0x00 (0000ms, 0935ms total)
T06BC 001:347 JLINK_WriteReg(XPSR, 0x01000000)  returns 0x00 (0000ms, 0935ms total)
T06BC 001:347 JLINK_WriteReg(MSP, 0x20000800)  returns 0x00 (0000ms, 0935ms total)
T06BC 001:347 JLINK_WriteReg(PSP, 0x20000800)  returns 0x00 (0001ms, 0936ms total)
T06BC 001:348 JLINK_WriteReg(CFBP, 0x00000000)  returns 0x00 (0000ms, 0936ms total)
T06BC 001:348 JLINK_SetBPEx(Addr = 0x20000000, Type = 0xFFFFFFF2)  returns 0x0000000B (0000ms, 0936ms total)
T06BC 001:348 JLINK_Go() (0006ms, 0942ms total)
T06BC 001:354 JLINK_IsHalted()  returns FALSE (0003ms, 0945ms total)
T06BC 001:360 JLINK_IsHalted()  returns FALSE (0003ms, 0945ms total)
T06BC 001:364 JLINK_IsHalted()  returns FALSE (0004ms, 0946ms total)
T06BC 001:369 JLINK_IsHalted()  returns FALSE (0002ms, 0944ms total)
T06BC 001:372 JLINK_IsHalted()  returns FALSE (0004ms, 0946ms total)
T06BC 001:377 JLINK_IsHalted()  returns FALSE (0002ms, 0944ms total)
T06BC 001:382 JLINK_IsHalted() -- CPU_ReadMem(2 bytes @ 0x20000000)  returns TRUE (0012ms, 0954ms total)
T06BC 001:394 JLINK_ReadReg(R15)  returns 0x20000000 (0000ms, 0942ms total)
T06BC 001:394 JLINK_ClrBPEx(BPHandle = 0x0000000B)  returns 0x00 (0000ms, 0942ms total)
T06BC 001:394 JLINK_ReadReg(R0)  returns 0x00000000 (0001ms, 0943ms total)
T06BC 001:395 JLINK_WriteMem(0x20000164, 0x0400 Bytes, ...) -- Data:  00 BF 00 BF 20 88 D0 49 09 68 45 18 AC 42 15 D0 ... -- CPU_WriteMem(1024 bytes @ 0x20000164)  returns 0x400 (0013ms, 0956ms total)
T06BC 001:408 JLINK_WriteReg(R0, 0x08001C00)  returns 0x00 (0000ms, 0956ms total)
T06BC 001:408 JLINK_WriteReg(R1, 0x00000400)  returns 0x00 (0000ms, 0956ms total)
T06BC 001:408 JLINK_WriteReg(R2, 0x20000164)  returns 0x00 (0000ms, 0956ms total)
T06BC 001:408 JLINK_WriteReg(R3, 0x00000000)  returns 0x00 (0000ms, 0956ms total)
T06BC 001:408 JLINK_WriteReg(R4, 0x00000000)  returns 0x00 (0000ms, 0956ms total)
T06BC 001:408 JLINK_WriteReg(R5, 0x00000000)  returns 0x00 (0000ms, 0956ms total)
T06BC 001:408 JLINK_WriteReg(R6, 0x00000000)  returns 0x00 (0000ms, 0956ms total)
T06BC 001:408 JLINK_WriteReg(R7, 0x00000000)  returns 0x00 (0000ms, 0956ms total)
T06BC 001:408 JLINK_WriteReg(R8, 0x00000000)  returns 0x00 (0000ms, 0956ms total)
T06BC 001:408 JLINK_WriteReg(R9, 0x20000160)  returns 0x00 (0000ms, 0956ms total)
T06BC 001:408 JLINK_WriteReg(R10, 0x00000000)  returns 0x00 (0000ms, 0956ms total)
T06BC 001:408 JLINK_WriteReg(R11, 0x00000000)  returns 0x00 (0000ms, 0956ms total)
T06BC 001:408 JLINK_WriteReg(R12, 0x00000000)  returns 0x00 (0000ms, 0956ms total)
T06BC 001:408 JLINK_WriteReg(R13, 0x20000800)  returns 0x00 (0000ms, 0956ms total)
T06BC 001:408 JLINK_WriteReg(R14, 0x20000001)  returns 0x00 (0000ms, 0956ms total)
T06BC 001:408 JLINK_WriteReg(R15, 0x200000F4)  returns 0x00 (0000ms, 0956ms total)
T06BC 001:408 JLINK_WriteReg(XPSR, 0x01000000)  returns 0x00 (0000ms, 0956ms total)
T06BC 001:408 JLINK_WriteReg(MSP, 0x20000800)  returns 0x00 (0000ms, 0956ms total)
T06BC 001:408 JLINK_WriteReg(PSP, 0x20000800)  returns 0x00 (0000ms, 0956ms total)
T06BC 001:408 JLINK_WriteReg(CFBP, 0x00000000)  returns 0x00 (0000ms, 0956ms total)
T06BC 001:408 JLINK_SetBPEx(Addr = 0x20000000, Type = 0xFFFFFFF2)  returns 0x0000000C (0000ms, 0956ms total)
T06BC 001:408 JLINK_Go() (0008ms, 0964ms total)
T06BC 001:416 JLINK_IsHalted()  returns FALSE (0003ms, 0967ms total)
T06BC 001:423 JLINK_IsHalted()  returns FALSE (0003ms, 0967ms total)
T06BC 001:428 JLINK_IsHalted()  returns FALSE (0003ms, 0967ms total)
T06BC 001:432 JLINK_IsHalted()  returns FALSE (0002ms, 0966ms total)
T06BC 001:435 JLINK_IsHalted()  returns FALSE (0003ms, 0967ms total)
T06BC 001:439 JLINK_IsHalted()  returns FALSE (0002ms, 0966ms total)
T06BC 001:442 JLINK_IsHalted()  returns FALSE (0002ms, 0966ms total)
T06BC 001:447 JLINK_IsHalted() -- CPU_ReadMem(2 bytes @ 0x20000000)  returns TRUE (0010ms, 0974ms total)
T06BC 001:457 JLINK_ReadReg(R15)  returns 0x20000000 (0000ms, 0964ms total)
T06BC 001:457 JLINK_ClrBPEx(BPHandle = 0x0000000C)  returns 0x00 (0000ms, 0964ms total)
T06BC 001:457 JLINK_ReadReg(R0)  returns 0x00000000 (0000ms, 0964ms total)
T06BC 001:457 JLINK_WriteMem(0x20000164, 0x0400 Bytes, ...) -- Data:  74 20 3C 3D 20 4D 45 4D 5F 53 49 5A 45 5F 41 4C ... -- CPU_WriteMem(1024 bytes @ 0x20000164)  returns 0x400 (0013ms, 0977ms total)
T06BC 001:470 JLINK_WriteReg(R0, 0x08002000)  returns 0x00 (0000ms, 0977ms total)
T06BC 001:470 JLINK_WriteReg(R1, 0x00000400)  returns 0x00 (0000ms, 0977ms total)
T06BC 001:470 JLINK_WriteReg(R2, 0x20000164)  returns 0x00 (0000ms, 0977ms total)
T06BC 001:470 JLINK_WriteReg(R3, 0x00000000)  returns 0x00 (0000ms, 0977ms total)
T06BC 001:470 JLINK_WriteReg(R4, 0x00000000)  returns 0x00 (0000ms, 0977ms total)
T06BC 001:470 JLINK_WriteReg(R5, 0x00000000)  returns 0x00 (0000ms, 0977ms total)
T06BC 001:470 JLINK_WriteReg(R6, 0x00000000)  returns 0x00 (0000ms, 0977ms total)
T06BC 001:470 JLINK_WriteReg(R7, 0x00000000)  returns 0x00 (0000ms, 0977ms total)
T06BC 001:470 JLINK_WriteReg(R8, 0x00000000)  returns 0x00 (0000ms, 0977ms total)
T06BC 001:470 JLINK_WriteReg(R9, 0x20000160)  returns 0x00 (0000ms, 0977ms total)
T06BC 001:470 JLINK_WriteReg(R10, 0x00000000)  returns 0x00 (0000ms, 0977ms total)
T06BC 001:470 JLINK_WriteReg(R11, 0x00000000)  returns 0x00 (0000ms, 0977ms total)
T06BC 001:470 JLINK_WriteReg(R12, 0x00000000)  returns 0x00 (0000ms, 0977ms total)
T06BC 001:470 JLINK_WriteReg(R13, 0x20000800)  returns 0x00 (0000ms, 0977ms total)
T06BC 001:470 JLINK_WriteReg(R14, 0x20000001)  returns 0x00 (0000ms, 0977ms total)
T06BC 001:470 JLINK_WriteReg(R15, 0x200000F4)  returns 0x00 (0000ms, 0977ms total)
T06BC 001:470 JLINK_WriteReg(XPSR, 0x01000000)  returns 0x00 (0000ms, 0977ms total)
T06BC 001:470 JLINK_WriteReg(MSP, 0x20000800)  returns 0x00 (0001ms, 0978ms total)
T06BC 001:471 JLINK_WriteReg(PSP, 0x20000800)  returns 0x00 (0000ms, 0978ms total)
T06BC 001:471 JLINK_WriteReg(CFBP, 0x00000000)  returns 0x00 (0000ms, 0978ms total)
T06BC 001:471 JLINK_SetBPEx(Addr = 0x20000000, Type = 0xFFFFFFF2)  returns 0x0000000D (0000ms, 0978ms total)
T06BC 001:471 JLINK_Go() (0007ms, 0985ms total)
T06BC 001:478 JLINK_IsHalted()  returns FALSE (0002ms, 0987ms total)
T06BC 001:481 JLINK_IsHalted()  returns FALSE (0003ms, 0988ms total)
T06BC 001:485 JLINK_IsHalted()  returns FALSE (0003ms, 0988ms total)
T06BC 001:492 JLINK_IsHalted()  returns FALSE (0003ms, 0988ms total)
T06BC 001:496 JLINK_IsHalted()  returns FALSE (0003ms, 0988ms total)
T06BC 001:500 JLINK_IsHalted()  returns FALSE (0003ms, 0988ms total)
T06BC 001:506 JLINK_IsHalted()  returns FALSE (0003ms, 0988ms total)
T06BC 001:510 JLINK_IsHalted() -- CPU_ReadMem(2 bytes @ 0x20000000)  returns TRUE (0010ms, 0995ms total)
T06BC 001:520 JLINK_ReadReg(R15)  returns 0x20000000 (0000ms, 0985ms total)
T06BC 001:520 JLINK_ClrBPEx(BPHandle = 0x0000000D)  returns 0x00 (0000ms, 0985ms total)
T06BC 001:520 JLINK_ReadReg(R0)  returns 0x00000000 (0000ms, 0985ms total)
T06BC 001:520 JLINK_WriteMem(0x20000164, 0x0400 Bytes, ...) -- Data:  81 88 04 EB 84 02 2F 48 00 EB 42 00 40 88 81 42 ... -- CPU_WriteMem(1024 bytes @ 0x20000164)  returns 0x400 (0014ms, 0999ms total)
T06BC 001:534 JLINK_WriteReg(R0, 0x08002400)  returns 0x00 (0000ms, 0999ms total)
T06BC 001:534 JLINK_WriteReg(R1, 0x00000400)  returns 0x00 (0000ms, 0999ms total)
T06BC 001:534 JLINK_WriteReg(R2, 0x20000164)  returns 0x00 (0001ms, 1000ms total)
T06BC 001:535 JLINK_WriteReg(R3, 0x00000000)  returns 0x00 (0000ms, 1000ms total)
T06BC 001:535 JLINK_WriteReg(R4, 0x00000000)  returns 0x00 (0000ms, 1000ms total)
T06BC 001:535 JLINK_WriteReg(R5, 0x00000000)  returns 0x00 (0000ms, 1000ms total)
T06BC 001:535 JLINK_WriteReg(R6, 0x00000000)  returns 0x00 (0000ms, 1000ms total)
T06BC 001:535 JLINK_WriteReg(R7, 0x00000000)  returns 0x00 (0000ms, 1000ms total)
T06BC 001:535 JLINK_WriteReg(R8, 0x00000000)  returns 0x00 (0000ms, 1000ms total)
T06BC 001:535 JLINK_WriteReg(R9, 0x20000160)  returns 0x00 (0000ms, 1000ms total)
T06BC 001:535 JLINK_WriteReg(R10, 0x00000000)  returns 0x00 (0000ms, 1000ms total)
T06BC 001:535 JLINK_WriteReg(R11, 0x00000000)  returns 0x00 (0000ms, 1000ms total)
T06BC 001:535 JLINK_WriteReg(R12, 0x00000000)  returns 0x00 (0000ms, 1000ms total)
T06BC 001:535 JLINK_WriteReg(R13, 0x20000800)  returns 0x00 (0000ms, 1000ms total)
T06BC 001:535 JLINK_WriteReg(R14, 0x20000001)  returns 0x00 (0000ms, 1000ms total)
T06BC 001:535 JLINK_WriteReg(R15, 0x200000F4)  returns 0x00 (0000ms, 1000ms total)
T06BC 001:535 JLINK_WriteReg(XPSR, 0x01000000)  returns 0x00 (0000ms, 1000ms total)
T06BC 001:535 JLINK_WriteReg(MSP, 0x20000800)  returns 0x00 (0000ms, 1000ms total)
T06BC 001:535 JLINK_WriteReg(PSP, 0x20000800)  returns 0x00 (0000ms, 1000ms total)
T06BC 001:535 JLINK_WriteReg(CFBP, 0x00000000)  returns 0x00 (0000ms, 1000ms total)
T06BC 001:535 JLINK_SetBPEx(Addr = 0x20000000, Type = 0xFFFFFFF2)  returns 0x0000000E (0000ms, 1000ms total)
T06BC 001:535 JLINK_Go() (0007ms, 1007ms total)
T06BC 001:542 JLINK_IsHalted()  returns FALSE (0004ms, 1011ms total)
T06BC 001:552 JLINK_IsHalted()  returns FALSE (0003ms, 1010ms total)
T06BC 001:556 JLINK_IsHalted()  returns FALSE (0002ms, 1009ms total)
T06BC 001:559 JLINK_IsHalted()  returns FALSE (0003ms, 1010ms total)
T06BC 001:563 JLINK_IsHalted()  returns FALSE (0004ms, 1011ms total)
T06BC 001:568 JLINK_IsHalted()  returns FALSE (0003ms, 1010ms total)
T06BC 001:572 JLINK_IsHalted() -- CPU_ReadMem(2 bytes @ 0x20000000)  returns TRUE (0011ms, 1018ms total)
T06BC 001:583 JLINK_ReadReg(R15)  returns 0x20000000 (0000ms, 1007ms total)
T06BC 001:583 JLINK_ClrBPEx(BPHandle = 0x0000000E)  returns 0x00 (0000ms, 1007ms total)
T06BC 001:583 JLINK_ReadReg(R0)  returns 0x00000000 (0000ms, 1007ms total)
T06BC 001:583 JLINK_WriteMem(0x20000164, 0x0400 Bytes, ...) -- Data:  20 7B 01 28 0E D0 20 7B 02 28 0B D0 20 7B 03 28 ... -- CPU_WriteMem(1024 bytes @ 0x20000164)  returns 0x400 (0013ms, 1020ms total)
T06BC 001:596 JLINK_WriteReg(R0, 0x08002800)  returns 0x00 (0000ms, 1020ms total)
T06BC 001:596 JLINK_WriteReg(R1, 0x00000400)  returns 0x00 (0000ms, 1020ms total)
T06BC 001:596 JLINK_WriteReg(R2, 0x20000164)  returns 0x00 (0000ms, 1020ms total)
T06BC 001:596 JLINK_WriteReg(R3, 0x00000000)  returns 0x00 (0000ms, 1020ms total)
T06BC 001:596 JLINK_WriteReg(R4, 0x00000000)  returns 0x00 (0000ms, 1020ms total)
T06BC 001:596 JLINK_WriteReg(R5, 0x00000000)  returns 0x00 (0000ms, 1020ms total)
T06BC 001:596 JLINK_WriteReg(R6, 0x00000000)  returns 0x00 (0000ms, 1020ms total)
T06BC 001:596 JLINK_WriteReg(R7, 0x00000000)  returns 0x00 (0000ms, 1020ms total)
T06BC 001:596 JLINK_WriteReg(R8, 0x00000000)  returns 0x00 (0000ms, 1020ms total)
T06BC 001:596 JLINK_WriteReg(R9, 0x20000160)  returns 0x00 (0000ms, 1020ms total)
T06BC 001:596 JLINK_WriteReg(R10, 0x00000000)  returns 0x00 (0000ms, 1020ms total)
T06BC 001:596 JLINK_WriteReg(R11, 0x00000000)  returns 0x00 (0000ms, 1020ms total)
T06BC 001:596 JLINK_WriteReg(R12, 0x00000000)  returns 0x00 (0000ms, 1020ms total)
T06BC 001:596 JLINK_WriteReg(R13, 0x20000800)  returns 0x00 (0000ms, 1020ms total)
T06BC 001:596 JLINK_WriteReg(R14, 0x20000001)  returns 0x00 (0000ms, 1020ms total)
T06BC 001:596 JLINK_WriteReg(R15, 0x200000F4)  returns 0x00 (0000ms, 1020ms total)
T06BC 001:596 JLINK_WriteReg(XPSR, 0x01000000)  returns 0x00 (0000ms, 1020ms total)
T06BC 001:596 JLINK_WriteReg(MSP, 0x20000800)  returns 0x00 (0000ms, 1020ms total)
T06BC 001:596 JLINK_WriteReg(PSP, 0x20000800)  returns 0x00 (0000ms, 1020ms total)
T06BC 001:596 JLINK_WriteReg(CFBP, 0x00000000)  returns 0x00 (0000ms, 1020ms total)
T06BC 001:596 JLINK_SetBPEx(Addr = 0x20000000, Type = 0xFFFFFFF2)  returns 0x0000000F (0000ms, 1020ms total)
T06BC 001:596 JLINK_Go() (0007ms, 1027ms total)
T06BC 001:603 JLINK_IsHalted()  returns FALSE (0003ms, 1030ms total)
T06BC 001:608 JLINK_IsHalted()  returns FALSE (0003ms, 1030ms total)
T06BC 001:612 JLINK_IsHalted()  returns FALSE (0003ms, 1030ms total)
T06BC 001:616 JLINK_IsHalted()  returns FALSE (0002ms, 1029ms total)
T06BC 001:619 JLINK_IsHalted()  returns FALSE (0002ms, 1029ms total)
T06BC 001:622 JLINK_IsHalted()  returns FALSE (0003ms, 1030ms total)
T06BC 001:626 JLINK_IsHalted()  returns FALSE (0003ms, 1030ms total)
T06BC 001:631 JLINK_IsHalted() -- CPU_ReadMem(2 bytes @ 0x20000000)  returns TRUE (0012ms, 1039ms total)
T06BC 001:643 JLINK_ReadReg(R15)  returns 0x20000000 (0000ms, 1027ms total)
T06BC 001:643 JLINK_ClrBPEx(BPHandle = 0x0000000F)  returns 0x00 (0000ms, 1027ms total)
T06BC 001:643 JLINK_ReadReg(R0)  returns 0x00000000 (0000ms, 1027ms total)
T06BC 001:643 JLINK_WriteMem(0x20000164, 0x0400 Bytes, ...) -- Data:  00 00 00 00 70 62 75 66 5F 66 72 65 65 3A 20 70 ... -- CPU_WriteMem(1024 bytes @ 0x20000164)  returns 0x400 (0013ms, 1040ms total)
T06BC 001:656 JLINK_WriteReg(R0, 0x08002C00)  returns 0x00 (0000ms, 1040ms total)
T06BC 001:656 JLINK_WriteReg(R1, 0x00000400)  returns 0x00 (0000ms, 1040ms total)
T06BC 001:656 JLINK_WriteReg(R2, 0x20000164)  returns 0x00 (0000ms, 1040ms total)
T06BC 001:656 JLINK_WriteReg(R3, 0x00000000)  returns 0x00 (0000ms, 1040ms total)
T06BC 001:656 JLINK_WriteReg(R4, 0x00000000)  returns 0x00 (0000ms, 1040ms total)
